Sample in Buffer,Sample in Window,TRIGGER,my_test_algo/bram_to_hls[63:32],my_test_algo/bram_to_hls_1[31:0],my_test_algo/hls_to_ila[31:0]
0,0,1,22222222,bbbbbbbb,44444445
1,1,0,11111111,aaaaaaaa,55555556
2,2,0,22222222,bbbbbbbb,44444445
3,3,0,11111111,aaaaaaaa,55555556
4,4,0,22222222,bbbbbbbb,44444445
5,5,0,11111111,aaaaaaaa,55555556
6,6,0,22222222,bbbbbbbb,44444445
7,7,0,11111111,aaaaaaaa,55555556
8,8,0,22222222,bbbbbbbb,44444445
9,9,0,11111111,aaaaaaaa,55555556
10,10,0,22222222,bbbbbbbb,44444445
11,11,0,11111111,aaaaaaaa,55555556
12,12,0,22222222,bbbbbbbb,44444445
13,13,0,11111111,aaaaaaaa,55555556
14,14,0,22222222,bbbbbbbb,44444445
15,15,0,11111111,aaaaaaaa,55555556
16,16,0,22222222,bbbbbbbb,44444445
17,17,0,11111111,aaaaaaaa,55555556
18,18,0,22222222,bbbbbbbb,44444445
19,19,0,11111111,aaaaaaaa,55555556
20,20,0,22222222,bbbbbbbb,44444445
21,21,0,11111111,aaaaaaaa,55555556
22,22,0,22222222,bbbbbbbb,44444445
23,23,0,11111111,aaaaaaaa,55555556
24,24,0,22222222,bbbbbbbb,44444445
25,25,0,11111111,aaaaaaaa,55555556
26,26,0,22222222,bbbbbbbb,44444445
27,27,0,11111111,aaaaaaaa,55555556
28,28,0,22222222,bbbbbbbb,44444445
29,29,0,11111111,aaaaaaaa,55555556
30,30,0,22222222,bbbbbbbb,44444445
31,31,0,11111111,aaaaaaaa,55555556
32,32,0,22222222,bbbbbbbb,44444445
33,33,0,11111111,aaaaaaaa,55555556
34,34,0,22222222,bbbbbbbb,44444445
35,35,0,11111111,aaaaaaaa,55555556
36,36,0,22222222,bbbbbbbb,44444445
37,37,0,11111111,aaaaaaaa,55555556
38,38,0,22222222,bbbbbbbb,44444445
39,39,0,11111111,aaaaaaaa,55555556
40,40,0,22222222,bbbbbbbb,44444445
41,41,0,11111111,aaaaaaaa,55555556
42,42,0,22222222,bbbbbbbb,44444445
43,43,0,11111111,aaaaaaaa,55555556
44,44,0,22222222,bbbbbbbb,44444445
45,45,0,11111111,aaaaaaaa,55555556
46,46,0,22222222,bbbbbbbb,44444445
47,47,0,11111111,aaaaaaaa,55555556
48,48,0,22222222,bbbbbbbb,44444445
49,49,0,11111111,aaaaaaaa,55555556
50,50,0,22222222,bbbbbbbb,44444445
51,51,0,11111111,aaaaaaaa,55555556
52,52,0,22222222,bbbbbbbb,44444445
53,53,0,11111111,aaaaaaaa,55555556
54,54,0,22222222,bbbbbbbb,44444445
55,55,0,11111111,aaaaaaaa,55555556
56,56,0,22222222,bbbbbbbb,44444445
57,57,0,11111111,aaaaaaaa,55555556
58,58,0,22222222,bbbbbbbb,44444445
59,59,0,11111111,aaaaaaaa,55555556
60,60,0,22222222,bbbbbbbb,44444445
61,61,0,11111111,aaaaaaaa,55555556
62,62,0,22222222,bbbbbbbb,44444445
63,63,0,11111111,aaaaaaaa,55555556
64,64,0,22222222,bbbbbbbb,44444445
65,65,0,11111111,aaaaaaaa,55555556
66,66,0,22222222,bbbbbbbb,44444445
67,67,0,11111111,aaaaaaaa,55555556
68,68,0,22222222,bbbbbbbb,44444445
69,69,0,11111111,aaaaaaaa,55555556
70,70,0,22222222,bbbbbbbb,44444445
71,71,0,11111111,aaaaaaaa,55555556
72,72,0,22222222,bbbbbbbb,44444445
73,73,0,11111111,aaaaaaaa,55555556
74,74,0,22222222,bbbbbbbb,44444445
75,75,0,11111111,aaaaaaaa,55555556
76,76,0,22222222,bbbbbbbb,44444445
77,77,0,11111111,aaaaaaaa,55555556
78,78,0,22222222,bbbbbbbb,44444445
79,79,0,11111111,aaaaaaaa,55555556
80,80,0,22222222,bbbbbbbb,44444445
81,81,0,11111111,aaaaaaaa,55555556
82,82,0,22222222,bbbbbbbb,44444445
83,83,0,11111111,aaaaaaaa,55555556
84,84,0,22222222,bbbbbbbb,44444445
85,85,0,11111111,aaaaaaaa,55555556
86,86,0,22222222,bbbbbbbb,44444445
87,87,0,11111111,aaaaaaaa,55555556
88,88,0,22222222,bbbbbbbb,44444445
89,89,0,11111111,aaaaaaaa,55555556
90,90,0,22222222,bbbbbbbb,44444445
91,91,0,11111111,aaaaaaaa,55555556
92,92,0,22222222,bbbbbbbb,44444445
93,93,0,11111111,aaaaaaaa,55555556
94,94,0,22222222,bbbbbbbb,44444445
95,95,0,11111111,aaaaaaaa,55555556
96,96,0,22222222,bbbbbbbb,44444445
97,97,0,11111111,aaaaaaaa,55555556
98,98,0,22222222,bbbbbbbb,44444445
99,99,0,11111111,aaaaaaaa,55555556
100,100,0,22222222,bbbbbbbb,44444445
101,101,0,11111111,aaaaaaaa,55555556
102,102,0,22222222,bbbbbbbb,44444445
103,103,0,11111111,aaaaaaaa,55555556
104,104,0,22222222,bbbbbbbb,44444445
105,105,0,11111111,aaaaaaaa,55555556
106,106,0,22222222,bbbbbbbb,44444445
107,107,0,11111111,aaaaaaaa,55555556
108,108,0,22222222,bbbbbbbb,44444445
109,109,0,11111111,aaaaaaaa,55555556
110,110,0,22222222,bbbbbbbb,44444445
111,111,0,11111111,aaaaaaaa,55555556
112,112,0,22222222,bbbbbbbb,44444445
113,113,0,11111111,aaaaaaaa,55555556
114,114,0,22222222,bbbbbbbb,44444445
115,115,0,11111111,aaaaaaaa,55555556
116,116,0,22222222,bbbbbbbb,44444445
117,117,0,11111111,aaaaaaaa,55555556
118,118,0,22222222,bbbbbbbb,44444445
119,119,0,11111111,aaaaaaaa,55555556
120,120,0,22222222,bbbbbbbb,44444445
121,121,0,11111111,aaaaaaaa,55555556
122,122,0,22222222,bbbbbbbb,44444445
123,123,0,11111111,aaaaaaaa,55555556
124,124,0,22222222,bbbbbbbb,44444445
125,125,0,11111111,aaaaaaaa,55555556
126,126,0,22222222,bbbbbbbb,44444445
127,127,0,11111111,aaaaaaaa,55555556
128,128,0,22222222,bbbbbbbb,44444445
129,129,0,11111111,aaaaaaaa,55555556
130,130,0,22222222,bbbbbbbb,44444445
131,131,0,11111111,aaaaaaaa,55555556
132,132,0,22222222,bbbbbbbb,44444445
133,133,0,11111111,aaaaaaaa,55555556
134,134,0,22222222,bbbbbbbb,44444445
135,135,0,11111111,aaaaaaaa,55555556
136,136,0,22222222,bbbbbbbb,44444445
137,137,0,11111111,aaaaaaaa,55555556
138,138,0,22222222,bbbbbbbb,44444445
139,139,0,11111111,aaaaaaaa,55555556
140,140,0,22222222,bbbbbbbb,44444445
141,141,0,11111111,aaaaaaaa,55555556
142,142,0,22222222,bbbbbbbb,44444445
143,143,0,11111111,aaaaaaaa,55555556
144,144,0,22222222,bbbbbbbb,44444445
145,145,0,11111111,aaaaaaaa,55555556
146,146,0,22222222,bbbbbbbb,44444445
147,147,0,11111111,aaaaaaaa,55555556
148,148,0,22222222,bbbbbbbb,44444445
149,149,0,11111111,aaaaaaaa,55555556
150,150,0,22222222,bbbbbbbb,44444445
151,151,0,11111111,aaaaaaaa,55555556
152,152,0,22222222,bbbbbbbb,44444445
153,153,0,11111111,aaaaaaaa,55555556
154,154,0,22222222,bbbbbbbb,44444445
155,155,0,11111111,aaaaaaaa,55555556
156,156,0,22222222,bbbbbbbb,44444445
157,157,0,11111111,aaaaaaaa,55555556
158,158,0,22222222,bbbbbbbb,44444445
159,159,0,11111111,aaaaaaaa,55555556
160,160,0,22222222,bbbbbbbb,44444445
161,161,0,11111111,aaaaaaaa,55555556
162,162,0,22222222,bbbbbbbb,44444445
163,163,0,11111111,aaaaaaaa,55555556
164,164,0,22222222,bbbbbbbb,44444445
165,165,0,11111111,aaaaaaaa,55555556
166,166,0,22222222,bbbbbbbb,44444445
167,167,0,11111111,aaaaaaaa,55555556
168,168,0,22222222,bbbbbbbb,44444445
169,169,0,11111111,aaaaaaaa,55555556
170,170,0,22222222,bbbbbbbb,44444445
171,171,0,11111111,aaaaaaaa,55555556
172,172,0,22222222,bbbbbbbb,44444445
173,173,0,11111111,aaaaaaaa,55555556
174,174,0,22222222,bbbbbbbb,44444445
175,175,0,11111111,aaaaaaaa,55555556
176,176,0,22222222,bbbbbbbb,44444445
177,177,0,11111111,aaaaaaaa,55555556
178,178,0,22222222,bbbbbbbb,44444445
179,179,0,11111111,aaaaaaaa,55555556
180,180,0,22222222,bbbbbbbb,44444445
181,181,0,11111111,aaaaaaaa,55555556
182,182,0,22222222,bbbbbbbb,44444445
183,183,0,11111111,aaaaaaaa,55555556
184,184,0,22222222,bbbbbbbb,44444445
185,185,0,11111111,aaaaaaaa,55555556
186,186,0,22222222,bbbbbbbb,44444445
187,187,0,11111111,aaaaaaaa,55555556
188,188,0,22222222,bbbbbbbb,44444445
189,189,0,11111111,aaaaaaaa,55555556
190,190,0,22222222,bbbbbbbb,44444445
191,191,0,11111111,aaaaaaaa,55555556
192,192,0,22222222,bbbbbbbb,44444445
193,193,0,11111111,aaaaaaaa,55555556
194,194,0,22222222,bbbbbbbb,44444445
195,195,0,11111111,aaaaaaaa,55555556
196,196,0,22222222,bbbbbbbb,44444445
197,197,0,11111111,aaaaaaaa,55555556
198,198,0,22222222,bbbbbbbb,44444445
199,199,0,11111111,aaaaaaaa,55555556
200,200,0,22222222,bbbbbbbb,44444445
201,201,0,11111111,aaaaaaaa,55555556
202,202,0,22222222,bbbbbbbb,44444445
203,203,0,11111111,aaaaaaaa,55555556
204,204,0,22222222,bbbbbbbb,44444445
205,205,0,11111111,aaaaaaaa,55555556
206,206,0,22222222,bbbbbbbb,44444445
207,207,0,11111111,aaaaaaaa,55555556
208,208,0,22222222,bbbbbbbb,44444445
209,209,0,11111111,aaaaaaaa,55555556
210,210,0,22222222,bbbbbbbb,44444445
211,211,0,11111111,aaaaaaaa,55555556
212,212,0,22222222,bbbbbbbb,44444445
213,213,0,11111111,aaaaaaaa,55555556
214,214,0,22222222,bbbbbbbb,44444445
215,215,0,11111111,aaaaaaaa,55555556
216,216,0,22222222,bbbbbbbb,44444445
217,217,0,11111111,aaaaaaaa,55555556
218,218,0,22222222,bbbbbbbb,44444445
219,219,0,11111111,aaaaaaaa,55555556
220,220,0,22222222,bbbbbbbb,44444445
221,221,0,11111111,aaaaaaaa,55555556
222,222,0,22222222,bbbbbbbb,44444445
223,223,0,11111111,aaaaaaaa,55555556
224,224,0,22222222,bbbbbbbb,44444445
225,225,0,11111111,aaaaaaaa,55555556
226,226,0,22222222,bbbbbbbb,44444445
227,227,0,11111111,aaaaaaaa,55555556
228,228,0,22222222,bbbbbbbb,44444445
229,229,0,11111111,aaaaaaaa,55555556
230,230,0,22222222,bbbbbbbb,44444445
231,231,0,11111111,aaaaaaaa,55555556
232,232,0,22222222,bbbbbbbb,44444445
233,233,0,11111111,aaaaaaaa,55555556
234,234,0,22222222,bbbbbbbb,44444445
235,235,0,11111111,aaaaaaaa,55555556
236,236,0,22222222,bbbbbbbb,44444445
237,237,0,11111111,aaaaaaaa,55555556
238,238,0,22222222,bbbbbbbb,44444445
239,239,0,11111111,aaaaaaaa,55555556
240,240,0,22222222,bbbbbbbb,44444445
241,241,0,11111111,aaaaaaaa,55555556
242,242,0,22222222,bbbbbbbb,44444445
243,243,0,11111111,aaaaaaaa,55555556
244,244,0,22222222,bbbbbbbb,44444445
245,245,0,11111111,aaaaaaaa,55555556
246,246,0,22222222,bbbbbbbb,44444445
247,247,0,11111111,aaaaaaaa,55555556
248,248,0,22222222,bbbbbbbb,44444445
249,249,0,11111111,aaaaaaaa,55555556
250,250,0,22222222,bbbbbbbb,44444445
251,251,0,11111111,aaaaaaaa,55555556
252,252,0,22222222,bbbbbbbb,44444445
253,253,0,11111111,aaaaaaaa,55555556
254,254,0,22222222,bbbbbbbb,44444445
255,255,0,11111111,aaaaaaaa,55555556
256,256,0,22222222,bbbbbbbb,44444445
257,257,0,11111111,aaaaaaaa,55555556
258,258,0,22222222,bbbbbbbb,44444445
259,259,0,11111111,aaaaaaaa,55555556
260,260,0,22222222,bbbbbbbb,44444445
261,261,0,11111111,aaaaaaaa,55555556
262,262,0,22222222,bbbbbbbb,44444445
263,263,0,11111111,aaaaaaaa,55555556
264,264,0,22222222,bbbbbbbb,44444445
265,265,0,11111111,aaaaaaaa,55555556
266,266,0,22222222,bbbbbbbb,44444445
267,267,0,11111111,aaaaaaaa,55555556
268,268,0,22222222,bbbbbbbb,44444445
269,269,0,11111111,aaaaaaaa,55555556
270,270,0,22222222,bbbbbbbb,44444445
271,271,0,11111111,aaaaaaaa,55555556
272,272,0,22222222,bbbbbbbb,44444445
273,273,0,11111111,aaaaaaaa,55555556
274,274,0,22222222,bbbbbbbb,44444445
275,275,0,11111111,aaaaaaaa,55555556
276,276,0,22222222,bbbbbbbb,44444445
277,277,0,11111111,aaaaaaaa,55555556
278,278,0,22222222,bbbbbbbb,44444445
279,279,0,11111111,aaaaaaaa,55555556
280,280,0,22222222,bbbbbbbb,44444445
281,281,0,11111111,aaaaaaaa,55555556
282,282,0,22222222,bbbbbbbb,44444445
283,283,0,11111111,aaaaaaaa,55555556
284,284,0,22222222,bbbbbbbb,44444445
285,285,0,11111111,aaaaaaaa,55555556
286,286,0,22222222,bbbbbbbb,44444445
287,287,0,11111111,aaaaaaaa,55555556
288,288,0,22222222,bbbbbbbb,44444445
289,289,0,11111111,aaaaaaaa,55555556
290,290,0,22222222,bbbbbbbb,44444445
291,291,0,11111111,aaaaaaaa,55555556
292,292,0,22222222,bbbbbbbb,44444445
293,293,0,11111111,aaaaaaaa,55555556
294,294,0,22222222,bbbbbbbb,44444445
295,295,0,11111111,aaaaaaaa,55555556
296,296,0,22222222,bbbbbbbb,44444445
297,297,0,11111111,aaaaaaaa,55555556
298,298,0,22222222,bbbbbbbb,44444445
299,299,0,11111111,aaaaaaaa,55555556
300,300,0,22222222,bbbbbbbb,44444445
301,301,0,11111111,aaaaaaaa,55555556
302,302,0,22222222,bbbbbbbb,44444445
303,303,0,11111111,aaaaaaaa,55555556
304,304,0,22222222,bbbbbbbb,44444445
305,305,0,11111111,aaaaaaaa,55555556
306,306,0,22222222,bbbbbbbb,44444445
307,307,0,11111111,aaaaaaaa,55555556
308,308,0,22222222,bbbbbbbb,44444445
309,309,0,11111111,aaaaaaaa,55555556
310,310,0,22222222,bbbbbbbb,44444445
311,311,0,11111111,aaaaaaaa,55555556
312,312,0,22222222,bbbbbbbb,44444445
313,313,0,11111111,aaaaaaaa,55555556
314,314,0,22222222,bbbbbbbb,44444445
315,315,0,11111111,aaaaaaaa,55555556
316,316,0,22222222,bbbbbbbb,44444445
317,317,0,11111111,aaaaaaaa,55555556
318,318,0,22222222,bbbbbbbb,44444445
319,319,0,11111111,aaaaaaaa,55555556
320,320,0,22222222,bbbbbbbb,44444445
321,321,0,11111111,aaaaaaaa,55555556
322,322,0,22222222,bbbbbbbb,44444445
323,323,0,11111111,aaaaaaaa,55555556
324,324,0,22222222,bbbbbbbb,44444445
325,325,0,11111111,aaaaaaaa,55555556
326,326,0,22222222,bbbbbbbb,44444445
327,327,0,11111111,aaaaaaaa,55555556
328,328,0,22222222,bbbbbbbb,44444445
329,329,0,11111111,aaaaaaaa,55555556
330,330,0,22222222,bbbbbbbb,44444445
331,331,0,11111111,aaaaaaaa,55555556
332,332,0,22222222,bbbbbbbb,44444445
333,333,0,11111111,aaaaaaaa,55555556
334,334,0,22222222,bbbbbbbb,44444445
335,335,0,11111111,aaaaaaaa,55555556
336,336,0,22222222,bbbbbbbb,44444445
337,337,0,11111111,aaaaaaaa,55555556
338,338,0,22222222,bbbbbbbb,44444445
339,339,0,11111111,aaaaaaaa,55555556
340,340,0,22222222,bbbbbbbb,44444445
341,341,0,11111111,aaaaaaaa,55555556
342,342,0,22222222,bbbbbbbb,44444445
343,343,0,11111111,aaaaaaaa,55555556
344,344,0,22222222,bbbbbbbb,44444445
345,345,0,11111111,aaaaaaaa,55555556
346,346,0,22222222,bbbbbbbb,44444445
347,347,0,11111111,aaaaaaaa,55555556
348,348,0,22222222,bbbbbbbb,44444445
349,349,0,11111111,aaaaaaaa,55555556
350,350,0,22222222,bbbbbbbb,44444445
351,351,0,11111111,aaaaaaaa,55555556
352,352,0,22222222,bbbbbbbb,44444445
353,353,0,11111111,aaaaaaaa,55555556
354,354,0,22222222,bbbbbbbb,44444445
355,355,0,11111111,aaaaaaaa,55555556
356,356,0,22222222,bbbbbbbb,44444445
357,357,0,11111111,aaaaaaaa,55555556
358,358,0,22222222,bbbbbbbb,44444445
359,359,0,11111111,aaaaaaaa,55555556
360,360,0,22222222,bbbbbbbb,44444445
361,361,0,11111111,aaaaaaaa,55555556
362,362,0,22222222,bbbbbbbb,44444445
363,363,0,11111111,aaaaaaaa,55555556
364,364,0,22222222,bbbbbbbb,44444445
365,365,0,11111111,aaaaaaaa,55555556
366,366,0,22222222,bbbbbbbb,44444445
367,367,0,11111111,aaaaaaaa,55555556
368,368,0,22222222,bbbbbbbb,44444445
369,369,0,11111111,aaaaaaaa,55555556
370,370,0,22222222,bbbbbbbb,44444445
371,371,0,11111111,aaaaaaaa,55555556
372,372,0,22222222,bbbbbbbb,44444445
373,373,0,11111111,aaaaaaaa,55555556
374,374,0,22222222,bbbbbbbb,44444445
375,375,0,11111111,aaaaaaaa,55555556
376,376,0,22222222,bbbbbbbb,44444445
377,377,0,11111111,aaaaaaaa,55555556
378,378,0,22222222,bbbbbbbb,44444445
379,379,0,11111111,aaaaaaaa,55555556
380,380,0,22222222,bbbbbbbb,44444445
381,381,0,11111111,aaaaaaaa,55555556
382,382,0,22222222,bbbbbbbb,44444445
383,383,0,11111111,aaaaaaaa,55555556
384,384,0,22222222,bbbbbbbb,44444445
385,385,0,11111111,aaaaaaaa,55555556
386,386,0,22222222,bbbbbbbb,44444445
387,387,0,11111111,aaaaaaaa,55555556
388,388,0,22222222,bbbbbbbb,44444445
389,389,0,11111111,aaaaaaaa,55555556
390,390,0,22222222,bbbbbbbb,44444445
391,391,0,11111111,aaaaaaaa,55555556
392,392,0,22222222,bbbbbbbb,44444445
393,393,0,11111111,aaaaaaaa,55555556
394,394,0,22222222,bbbbbbbb,44444445
395,395,0,11111111,aaaaaaaa,55555556
396,396,0,22222222,bbbbbbbb,44444445
397,397,0,11111111,aaaaaaaa,55555556
398,398,0,22222222,bbbbbbbb,44444445
399,399,0,11111111,aaaaaaaa,55555556
400,400,0,22222222,bbbbbbbb,44444445
401,401,0,11111111,aaaaaaaa,55555556
402,402,0,22222222,bbbbbbbb,44444445
403,403,0,11111111,aaaaaaaa,55555556
404,404,0,22222222,bbbbbbbb,44444445
405,405,0,11111111,aaaaaaaa,55555556
406,406,0,22222222,bbbbbbbb,44444445
407,407,0,11111111,aaaaaaaa,55555556
408,408,0,22222222,bbbbbbbb,44444445
409,409,0,11111111,aaaaaaaa,55555556
410,410,0,22222222,bbbbbbbb,44444445
411,411,0,11111111,aaaaaaaa,55555556
412,412,0,22222222,bbbbbbbb,44444445
413,413,0,11111111,aaaaaaaa,55555556
414,414,0,22222222,bbbbbbbb,44444445
415,415,0,11111111,aaaaaaaa,55555556
416,416,0,22222222,bbbbbbbb,44444445
417,417,0,11111111,aaaaaaaa,55555556
418,418,0,22222222,bbbbbbbb,44444445
419,419,0,11111111,aaaaaaaa,55555556
420,420,0,22222222,bbbbbbbb,44444445
421,421,0,11111111,aaaaaaaa,55555556
422,422,0,22222222,bbbbbbbb,44444445
423,423,0,11111111,aaaaaaaa,55555556
424,424,0,22222222,bbbbbbbb,44444445
425,425,0,11111111,aaaaaaaa,55555556
426,426,0,22222222,bbbbbbbb,44444445
427,427,0,11111111,aaaaaaaa,55555556
428,428,0,22222222,bbbbbbbb,44444445
429,429,0,11111111,aaaaaaaa,55555556
430,430,0,22222222,bbbbbbbb,44444445
431,431,0,11111111,aaaaaaaa,55555556
432,432,0,22222222,bbbbbbbb,44444445
433,433,0,11111111,aaaaaaaa,55555556
434,434,0,22222222,bbbbbbbb,44444445
435,435,0,11111111,aaaaaaaa,55555556
436,436,0,22222222,bbbbbbbb,44444445
437,437,0,11111111,aaaaaaaa,55555556
438,438,0,22222222,bbbbbbbb,44444445
439,439,0,11111111,aaaaaaaa,55555556
440,440,0,22222222,bbbbbbbb,44444445
441,441,0,11111111,aaaaaaaa,55555556
442,442,0,22222222,bbbbbbbb,44444445
443,443,0,11111111,aaaaaaaa,55555556
444,444,0,22222222,bbbbbbbb,44444445
445,445,0,11111111,aaaaaaaa,55555556
446,446,0,22222222,bbbbbbbb,44444445
447,447,0,11111111,aaaaaaaa,55555556
448,448,0,22222222,bbbbbbbb,44444445
449,449,0,11111111,aaaaaaaa,55555556
450,450,0,22222222,bbbbbbbb,44444445
451,451,0,11111111,aaaaaaaa,55555556
452,452,0,22222222,bbbbbbbb,44444445
453,453,0,11111111,aaaaaaaa,55555556
454,454,0,22222222,bbbbbbbb,44444445
455,455,0,11111111,aaaaaaaa,55555556
456,456,0,22222222,bbbbbbbb,44444445
457,457,0,11111111,aaaaaaaa,55555556
458,458,0,22222222,bbbbbbbb,44444445
459,459,0,11111111,aaaaaaaa,55555556
460,460,0,22222222,bbbbbbbb,44444445
461,461,0,11111111,aaaaaaaa,55555556
462,462,0,22222222,bbbbbbbb,44444445
463,463,0,11111111,aaaaaaaa,55555556
464,464,0,22222222,bbbbbbbb,44444445
465,465,0,11111111,aaaaaaaa,55555556
466,466,0,22222222,bbbbbbbb,44444445
467,467,0,11111111,aaaaaaaa,55555556
468,468,0,22222222,bbbbbbbb,44444445
469,469,0,11111111,aaaaaaaa,55555556
470,470,0,22222222,bbbbbbbb,44444445
471,471,0,11111111,aaaaaaaa,55555556
472,472,0,22222222,bbbbbbbb,44444445
473,473,0,11111111,aaaaaaaa,55555556
474,474,0,22222222,bbbbbbbb,44444445
475,475,0,11111111,aaaaaaaa,55555556
476,476,0,22222222,bbbbbbbb,44444445
477,477,0,11111111,aaaaaaaa,55555556
478,478,0,22222222,bbbbbbbb,44444445
479,479,0,11111111,aaaaaaaa,55555556
480,480,0,22222222,bbbbbbbb,44444445
481,481,0,11111111,aaaaaaaa,55555556
482,482,0,22222222,bbbbbbbb,44444445
483,483,0,11111111,aaaaaaaa,55555556
484,484,0,22222222,bbbbbbbb,44444445
485,485,0,11111111,aaaaaaaa,55555556
486,486,0,22222222,bbbbbbbb,44444445
487,487,0,11111111,aaaaaaaa,55555556
488,488,0,22222222,bbbbbbbb,44444445
489,489,0,11111111,aaaaaaaa,55555556
490,490,0,22222222,bbbbbbbb,44444445
491,491,0,11111111,aaaaaaaa,55555556
492,492,0,22222222,bbbbbbbb,44444445
493,493,0,11111111,aaaaaaaa,55555556
494,494,0,22222222,bbbbbbbb,44444445
495,495,0,11111111,aaaaaaaa,55555556
496,496,0,22222222,bbbbbbbb,44444445
497,497,0,11111111,aaaaaaaa,55555556
498,498,0,22222222,bbbbbbbb,44444445
499,499,0,11111111,aaaaaaaa,55555556
500,500,0,22222222,bbbbbbbb,44444445
501,501,0,11111111,aaaaaaaa,55555556
502,502,0,22222222,bbbbbbbb,44444445
503,503,0,11111111,aaaaaaaa,55555556
504,504,0,22222222,bbbbbbbb,44444445
505,505,0,11111111,aaaaaaaa,55555556
506,506,0,22222222,bbbbbbbb,44444445
507,507,0,11111111,aaaaaaaa,55555556
508,508,0,22222222,bbbbbbbb,44444445
509,509,0,11111111,aaaaaaaa,55555556
510,510,0,22222222,bbbbbbbb,44444445
511,511,0,11111111,aaaaaaaa,55555556
512,512,0,22222222,bbbbbbbb,44444445
513,513,0,11111111,aaaaaaaa,55555556
514,514,0,22222222,bbbbbbbb,44444445
515,515,0,11111111,aaaaaaaa,55555556
516,516,0,22222222,bbbbbbbb,44444445
517,517,0,11111111,aaaaaaaa,55555556
518,518,0,22222222,bbbbbbbb,44444445
519,519,0,11111111,aaaaaaaa,55555556
520,520,0,22222222,bbbbbbbb,44444445
521,521,0,11111111,aaaaaaaa,55555556
522,522,0,22222222,bbbbbbbb,44444445
523,523,0,11111111,aaaaaaaa,55555556
524,524,0,22222222,bbbbbbbb,44444445
525,525,0,11111111,aaaaaaaa,55555556
526,526,0,22222222,bbbbbbbb,44444445
527,527,0,11111111,aaaaaaaa,55555556
528,528,0,22222222,bbbbbbbb,44444445
529,529,0,11111111,aaaaaaaa,55555556
530,530,0,22222222,bbbbbbbb,44444445
531,531,0,11111111,aaaaaaaa,55555556
532,532,0,22222222,bbbbbbbb,44444445
533,533,0,11111111,aaaaaaaa,55555556
534,534,0,22222222,bbbbbbbb,44444445
535,535,0,11111111,aaaaaaaa,55555556
536,536,0,22222222,bbbbbbbb,44444445
537,537,0,11111111,aaaaaaaa,55555556
538,538,0,22222222,bbbbbbbb,44444445
539,539,0,11111111,aaaaaaaa,55555556
540,540,0,22222222,bbbbbbbb,44444445
541,541,0,11111111,aaaaaaaa,55555556
